T143C 000:037.272   SEGGER J-Link V7.84d Log File
T143C 000:038.382   DLL Compiled: Jan 25 2023 15:51:00
T143C 000:038.408   Logging started @ 2023-09-05 06:40
T143C 000:038.425 - 38.434ms
T143C 000:038.870 JLINK_SetWarnOutHandler(...)
T143C 000:039.175 - 0.319ms
T143C 000:039.204 JLINK_OpenEx(...)
T143C 000:040.379   Firmware: J-Link ARM-OB STM32 compiled Aug 22 2012 19:52:04
T143C 000:040.770   Firmware: J-Link ARM-OB STM32 compiled Aug 22 2012 19:52:04
T143C 000:042.581   Hardware: V7.00
T143C 000:042.653   S/N: 20090928
T143C 000:042.689   OEM: SEGGER
T143C 000:042.725   Feature(s): RDI,FlashDL,FlashBP,JFlash,GDBFull
T143C 000:043.702   TELNET listener socket opened on port 19021
T143C 000:043.901   WEBSRV WEBSRV_Init(): Starting webserver thread(s)
T143C 000:044.170   WEBSRV Webserver running on local port 19080
T143C 000:047.664 - 8.475ms returns "O.K."
T143C 000:048.169 JLINK_GetEmuCaps()
T143C 000:048.177 - 0.011ms returns 0x88EA5833
T143C 000:048.192 JLINK_TIF_GetAvailable(...)
T143C 000:048.372 - 0.188ms
T143C 000:048.396 JLINK_SetErrorOutHandler(...)
T143C 000:048.404 - 0.010ms
T143C 000:049.513 JLINK_ExecCommand("ProjectFile = "C:\Users\user\Documents\Keil\DQPSK_plus_Freq\Project\MDK\JLinkSettings.ini"", ...). 
T143C 000:093.518   Ref file found at: C:\Keil_v5\ARM\Segger\JLinkDevices.ref
T143C 000:093.910   REF file references invalid XML file: C:\Program Files (x86)\SEGGER\JLink\JLinkDevices.xml
T143C 000:094.059 - 44.550ms returns 0x00
T143C 000:096.038 JLINK_ExecCommand("Device = APM32F407IG", ...). 
T143C 000:100.593   Flash bank @ 0x1FFFC000: SFL: Parsing sectorization info from ELF file
T143C 000:100.611     FlashDevice.SectorInfo[0]: .SectorSize = 0x00000010, .SectorStartAddr = 0x00000000
T143C 000:100.620   OFL: Init() N/A
T143C 000:100.628   OFL: UnInit() N/A
T143C 000:100.635   OFL: EraseSector() N/A
T143C 000:100.642   OFL: ProgramPage() N/A
T143C 000:100.649   OFL: EraseChip() N/A
T143C 000:100.656   OFL: BlankCheck() N/A
T143C 000:100.663   OFL: Verify() N/A
T143C 000:100.671   OFL: SEGGER_FL_Erase() present @ offset 0x000001C5
T143C 000:100.679   OFL: SEGGER_FL_Program() present @ offset 0x00000145
T143C 000:100.686   OFL: SEGGER_FL_Read() N/A
T143C 000:100.693   OFL: SEGGER_OPEN_Read() N/A
T143C 000:100.700   OFL: SEGGER_FL_CalcCRC() present @ offset 0x000001ED
T143C 000:100.708   OFL: SEGGER_FL_Start() present @ offset 0x00000205
T143C 000:100.715   OFL: SEGGER_FL_GetFlashInfo() N/A
T143C 000:100.722   OFL: SEGGER_OPEN_GetFlashInfo() N/A
T143C 000:100.730   OFL: SEGGER_FL_Verify() present @ offset 0x00000089
T143C 000:100.737   OFL: SEGGER_FL_CheckBlank() present @ offset 0x000001D9
T143C 000:100.744   OFL: SEGGER_FL_Prepare() present @ offset 0x000000C5
T143C 000:100.752   OFL: SEGGER_FL_Restore() present @ offset 0x00000129
T143C 000:100.759   OFL: SEGGER_FL_EraseChip() N/A
T143C 000:103.387   Device "APM32F407IG" selected.
T143C 000:103.714 - 7.666ms returns 0x00
T143C 000:103.730 JLINK_ExecCommand("DisableConnectionTimeout", ...). 
T143C 000:103.738 - 0.004ms returns 0x01
T143C 000:103.745 JLINK_GetHardwareVersion()
T143C 000:103.750 - 0.007ms returns 70000
T143C 000:103.759 JLINK_GetDLLVersion()
T143C 000:103.764 - 0.006ms returns 78404
T143C 000:103.770 JLINK_GetOEMString(...)
T143C 000:103.776 JLINK_GetFirmwareString(...)
T143C 000:103.780 - 0.007ms
T143C 000:109.769 JLINK_GetDLLVersion()
T143C 000:109.787 - 0.020ms returns 78404
T143C 000:109.793 JLINK_GetCompileDateTime()
T143C 000:109.798 - 0.007ms
T143C 000:111.557 JLINK_GetFirmwareString(...)
T143C 000:111.570 - 0.016ms
T143C 000:113.184 JLINK_GetHardwareVersion()
T143C 000:113.198 - 0.016ms returns 70000
T143C 000:114.932 JLINK_GetSN()
T143C 000:114.953 - 0.023ms returns 20090928
T143C 000:117.139 JLINK_GetOEMString(...)
T143C 000:120.917 JLINK_TIF_Select(JLINKARM_TIF_SWD)
T143C 000:121.259 - 0.349ms returns 0x00
T143C 000:121.277 JLINK_HasError()
T143C 000:121.797 JLINK_SetSpeed(500)
T143C 000:121.852 - 0.060ms
T143C 000:121.863 JLINK_GetId()
T143C 000:124.350   InitTarget() start
T143C 000:124.422    J-Link Script File: Executing InitTarget()
T143C 000:129.446   Check if Flash is read protected.
T143C 000:135.111   InitTarget() end
T143C 000:138.138   Found SW-DP with ID 0x2BA01477
T143C 000:142.956   Old FW that does not support reading DPIDR via DAP jobs
T143C 000:148.676   DPv0 detected
T143C 000:150.935   CoreSight SoC-400 or earlier
T143C 000:152.712   Scanning AP map to find all available APs
T143C 000:157.542   AP[1]: Stopped AP scan as end of AP map has been reached
T143C 000:159.592   AP[0]: AHB-AP (IDR: 0x24770011)
T143C 000:161.290   Iterating through AP map to find AHB-AP to use
T143C 000:167.605   AP[0]: Core found
T143C 000:169.597   AP[0]: AHB-AP ROM base: 0xE00FF000
T143C 000:173.710   CPUID register: 0x410FC241. Implementer code: 0x41 (ARM)
T143C 000:175.403   Found Cortex-M4 r0p1, Little endian.
T143C 000:175.720   -- Max. mem block: 0x00002C18
T143C 000:176.308   CPU_ReadMem(4 bytes @ 0xE000EDF0)
T143C 000:177.351   CPU_WriteMem(4 bytes @ 0xE000EDF0)
T143C 000:178.477   CPU_ReadMem(4 bytes @ 0xE0002000)
T143C 000:181.326   FPUnit: 6 code (BP) slots and 2 literal slots
T143C 000:181.347   CPU_ReadMem(4 bytes @ 0xE000EDFC)
T143C 000:182.435   CPU_WriteMem(4 bytes @ 0xE000EDFC)
T143C 000:183.567   CPU_ReadMem(4 bytes @ 0xE0001000)
T143C 000:184.624   CPU_WriteMem(4 bytes @ 0xE0001000)
T143C 000:185.744   CPU_ReadMem(4 bytes @ 0xE000ED88)
T143C 000:186.804   CPU_WriteMem(4 bytes @ 0xE000ED88)
T143C 000:187.922   CPU_ReadMem(4 bytes @ 0xE000ED88)
T143C 000:189.062   CPU_WriteMem(4 bytes @ 0xE000ED88)
T143C 000:191.902   CoreSight components:
T143C 000:193.746   ROMTbl[0] @ E00FF000
T143C 000:193.767   CPU_ReadMem(64 bytes @ 0xE00FF000)
T143C 000:196.989   CPU_ReadMem(32 bytes @ 0xE000EFE0)
T143C 000:200.963   [0][0]: E000E000 CID B105E00D PID 000BB00C SCS-M7
T143C 000:200.986   CPU_ReadMem(32 bytes @ 0xE0001FE0)
T143C 000:205.098   [0][1]: E0001000 CID B105E00D PID 003BB002 DWT
T143C 000:205.123   CPU_ReadMem(32 bytes @ 0xE0002FE0)
T143C 000:209.261   [0][2]: E0002000 CID B105E00D PID 002BB003 FPB
T143C 000:209.298   CPU_ReadMem(32 bytes @ 0xE0000FE0)
T143C 000:213.175   [0][3]: E0000000 CID B105E00D PID 003BB001 ITM
T143C 000:213.198   CPU_ReadMem(32 bytes @ 0xE0040FE0)
T143C 000:217.491   [0][4]: E0040000 CID B105900D PID 000BB9A1 TPIU
T143C 000:217.522   CPU_ReadMem(32 bytes @ 0xE0041FE0)
T143C 000:221.430   [0][5]: E0041000 CID B105900D PID 000BB925 ETM
T143C 000:221.888 - 100.030ms returns 0x2BA01477
T143C 000:221.905 JLINK_GetDLLVersion()
T143C 000:221.910 - 0.007ms returns 78404
T143C 000:221.918 JLINK_CORE_GetFound()
T143C 000:221.923 - 0.007ms returns 0xE0000FF
T143C 000:221.931 JLINK_GetDebugInfo(0x100 = JLINKARM_ROM_TABLE_ADDR_INDEX)
T143C 000:221.939   Value=0xE00FF000
T143C 000:221.946 - 0.017ms returns 0
T143C 000:223.648 JLINK_GetDebugInfo(0x100 = JLINKARM_ROM_TABLE_ADDR_INDEX)
T143C 000:223.663   Value=0xE00FF000
T143C 000:223.670 - 0.024ms returns 0
T143C 000:223.677 JLINK_GetDebugInfo(0x101 = JLINKARM_DEBUG_INFO_ETM_ADDR_INDEX)
T143C 000:223.682   Value=0xE0041000
T143C 000:223.688 - 0.014ms returns 0
T143C 000:223.697 JLINK_ReadMemEx(0xE0041FD0, 0x20 Bytes, Flags = 0x02000004)
T143C 000:223.721   CPU_ReadMem(32 bytes @ 0xE0041FD0)
T143C 000:225.760   Data:  04 00 00 00 00 00 00 00 00 00 00 00 00 00 00 00 ...
T143C 000:225.770 - 2.075ms returns 32 (0x20)
T143C 000:225.777 JLINK_GetDebugInfo(0x102 = JLINKARM_DEBUG_INFO_MTB_ADDR_INDEX)
T143C 000:225.783   Value=0x00000000
T143C 000:225.796 - 0.021ms returns 0
T143C 000:225.802 JLINK_GetDebugInfo(0x103 = JLINKARM_DEBUG_INFO_TPIU_ADDR_INDEX)
T143C 000:225.807   Value=0xE0040000
T143C 000:225.813 - 0.013ms returns 0
T143C 000:225.819 JLINK_GetDebugInfo(0x104 = JLINKARM_DEBUG_INFO_ITM_ADDR_INDEX)
T143C 000:225.824   Value=0xE0000000
T143C 000:225.830 - 0.013ms returns 0
T143C 000:225.836 JLINK_GetDebugInfo(0x105 = JLINKARM_DEBUG_INFO_DWT_ADDR_INDEX)
T143C 000:225.840   Value=0xE0001000
T143C 000:225.847 - 0.013ms returns 0
T143C 000:225.852 JLINK_GetDebugInfo(0x106 = JLINKARM_DEBUG_INFO_FPB_ADDR_INDEX)
T143C 000:225.910   Value=0xE0002000
T143C 000:225.916 - 0.066ms returns 0
T143C 000:225.922 JLINK_GetDebugInfo(0x107 = JLINKARM_DEBUG_INFO_NVIC_ADDR_INDEX)
T143C 000:225.927   Value=0xE000E000
T143C 000:225.934 - 0.013ms returns 0
T143C 000:225.939 JLINK_GetDebugInfo(0x10C = JLINKARM_DEBUG_INFO_DBG_ADDR_INDEX)
T143C 000:225.944   Value=0xE000EDF0
T143C 000:225.950 - 0.013ms returns 0
T143C 000:225.956 JLINK_GetDebugInfo(0x01 = Unknown)
T143C 000:225.962   Value=0x00000001
T143C 000:225.969 - 0.015ms returns 0
T143C 000:225.975 JLINK_ReadMemU32(0xE000ED00, 0x1 Items)
T143C 000:225.984   CPU_ReadMem(4 bytes @ 0xE000ED00)
T143C 000:227.058   Data:  41 C2 0F 41
T143C 000:227.070   Debug reg: CPUID
T143C 000:227.077 - 1.104ms returns 1 (0x1)
T143C 000:227.084 JLINK_GetDebugInfo(0x10F = JLINKARM_DEBUG_INFO_HAS_CORTEX_M_SECURITY_EXT_INDEX)
T143C 000:227.090   Value=0x00000000
T143C 000:227.097 - 0.014ms returns 0
T143C 000:227.103 JLINK_HasError()
T143C 000:227.109 JLINK_SetResetType(JLINKARM_CM3_RESET_TYPE_NORMAL)
T143C 000:227.115 - 0.007ms returns JLINKARM_CM3_RESET_TYPE_NORMAL
T143C 000:227.120 JLINK_Reset()
T143C 000:227.133   CPU is running
T143C 000:227.141   CPU_WriteMem(4 bytes @ 0xE000EDF0)
T143C 000:228.248   CPU is running
T143C 000:228.266   CPU_WriteMem(4 bytes @ 0xE000EDFC)
T143C 000:231.176   Reset: Halt core after reset via DEMCR.VC_CORERESET.
T143C 000:233.839   Reset: Reset device via AIRCR.SYSRESETREQ.
T143C 000:233.863   CPU is running
T143C 000:233.874   CPU_WriteMem(4 bytes @ 0xE000ED0C)
T143C 000:288.258   CPU_ReadMem(4 bytes @ 0xE000EDF0)
T143C 000:289.343   CPU_ReadMem(4 bytes @ 0xE000EDF0)
T143C 000:301.086   CPU_WriteMem(4 bytes @ 0xE000EDFC)
T143C 000:307.320   CPU_ReadMem(4 bytes @ 0xE000EDF0)
T143C 000:318.650   CPU_WriteMem(4 bytes @ 0xE0002000)
T143C 000:319.821   CPU_ReadMem(4 bytes @ 0xE000EDFC)
T143C 000:320.929   CPU_ReadMem(4 bytes @ 0xE0001000)
T143C 000:322.091 - 94.978ms
T143C 000:322.112 JLINK_Halt()
T143C 000:322.119 - 0.009ms returns 0x00
T143C 000:322.129 JLINK_ReadMemU32(0xE000EDF0, 0x1 Items)
T143C 000:322.145   CPU_ReadMem(4 bytes @ 0xE000EDF0)
T143C 000:323.218   Data:  03 00 03 00
T143C 000:323.231   Debug reg: DHCSR
T143C 000:323.238 - 1.110ms returns 1 (0x1)
T143C 000:323.293 JLINK_WriteU32_64(0xE000EDF0, 0xA05F0003)
T143C 000:323.302   Debug reg: DHCSR
T143C 000:323.610   CPU_WriteMem(4 bytes @ 0xE000EDF0)
T143C 000:324.740 - 1.454ms returns 0 (0x00000000)
T143C 000:324.753 JLINK_WriteU32_64(0xE000EDFC, 0x01000000)
T143C 000:324.759   Debug reg: DEMCR
T143C 000:324.773   CPU_WriteMem(4 bytes @ 0xE000EDFC)
T143C 000:325.945 - 1.199ms returns 0 (0x00000000)
T143C 000:333.721 JLINK_GetHWStatus(...)
T143C 000:334.180 - 0.465ms returns 0
T143C 000:339.333 JLINK_GetNumBPUnits(Type = 0xFFFFFF00)
T143C 000:339.353 - 0.022ms returns 0x06
T143C 000:339.359 JLINK_GetNumBPUnits(Type = 0xF0)
T143C 000:339.365 - 0.007ms returns 0x2000
T143C 000:339.370 JLINK_GetNumWPUnits()
T143C 000:339.375 - 0.007ms returns 4
T143C 000:344.104 JLINK_GetSpeed()
T143C 000:344.120 - 0.018ms returns 500
T143C 000:347.931 JLINK_ReadMemU32(0xE000E004, 0x1 Items)
T143C 000:347.972   CPU_ReadMem(4 bytes @ 0xE000E004)
T143C 000:349.114   Data:  02 00 00 00
T143C 000:349.133 - 1.205ms returns 1 (0x1)
T143C 000:349.150 JLINK_ReadMemU32(0xE000E004, 0x1 Items)
T143C 000:349.168   CPU_ReadMem(4 bytes @ 0xE000E004)
T143C 000:350.264   Data:  02 00 00 00
T143C 000:350.296 - 1.149ms returns 1 (0x1)
T143C 000:350.313 JLINK_WriteMemEx(0xE0001000, 0x0000001C Bytes, Flags = 0x02000004)
T143C 000:350.321   Data:  01 00 00 00 00 00 00 00 00 00 00 00 00 00 00 00 ...
T143C 000:350.343   CPU_WriteMem(28 bytes @ 0xE0001000)
T143C 000:352.429 - 2.124ms returns 0x1C
T143C 000:352.453 JLINK_Halt()
T143C 000:352.461 - 0.010ms returns 0x00
T143C 000:352.470 JLINK_IsHalted()
T143C 000:352.477 - 0.010ms returns TRUE
T143C 000:358.632 JLINK_WriteMem(0x20000000, 0x180 Bytes, ...)
T143C 000:358.648   Data:  00 BE 0A E0 0D 78 2D 06 68 40 08 24 40 00 00 D3 ...
T143C 000:358.934   CPU_WriteMem(384 bytes @ 0x20000000)
T143C 000:375.733 - 17.111ms returns 0x180
T143C 000:375.775 JLINK_HasError()
T143C 000:375.783 JLINK_WriteReg(R0, 0x08000000)
T143C 000:375.792 - 0.011ms returns 0
T143C 000:375.798 JLINK_WriteReg(R1, 0x00B71B00)
T143C 000:375.803 - 0.007ms returns 0
T143C 000:375.809 JLINK_WriteReg(R2, 0x00000001)
T143C 000:375.814 - 0.007ms returns 0
T143C 000:375.819 JLINK_WriteReg(R3, 0x00000000)
T143C 000:375.824 - 0.007ms returns 0
T143C 000:375.830 JLINK_WriteReg(R4, 0x00000000)
T143C 000:375.835 - 0.007ms returns 0
T143C 000:375.840 JLINK_WriteReg(R5, 0x00000000)
T143C 000:375.845 - 0.007ms returns 0
T143C 000:375.850 JLINK_WriteReg(R6, 0x00000000)
T143C 000:375.855 - 0.007ms returns 0
T143C 000:375.861 JLINK_WriteReg(R7, 0x00000000)
T143C 000:375.865 - 0.007ms returns 0
T143C 000:375.871 JLINK_WriteReg(R8, 0x00000000)
T143C 000:376.214 - 0.346ms returns 0
T143C 000:376.222 JLINK_WriteReg(R9, 0x2000017C)
T143C 000:376.228 - 0.007ms returns 0
T143C 000:376.233 JLINK_WriteReg(R10, 0x00000000)
T143C 000:376.239 - 0.007ms returns 0
T143C 000:376.244 JLINK_WriteReg(R11, 0x00000000)
T143C 000:376.249 - 0.007ms returns 0
T143C 000:376.254 JLINK_WriteReg(R12, 0x00000000)
T143C 000:376.259 - 0.007ms returns 0
T143C 000:376.265 JLINK_WriteReg(R13 (SP), 0x20001000)
T143C 000:376.270 - 0.008ms returns 0
T143C 000:376.278 JLINK_WriteReg(R14, 0x20000001)
T143C 000:376.285 - 0.009ms returns 0
T143C 000:376.292 JLINK_WriteReg(R15 (PC), 0x20000054)
T143C 000:376.303 - 0.014ms returns 0
T143C 000:376.309 JLINK_WriteReg(XPSR, 0x01000000)
T143C 000:376.314 - 0.007ms returns 0
T143C 000:376.320 JLINK_WriteReg(MSP, 0x20001000)
T143C 000:376.325 - 0.007ms returns 0
T143C 000:376.330 JLINK_WriteReg(PSP, 0x20001000)
T143C 000:376.335 - 0.007ms returns 0
T143C 000:376.340 JLINK_WriteReg(CFBP, 0x00000000)
T143C 000:376.345 - 0.007ms returns 0
T143C 000:376.351 JLINK_SetBPEx(Addr = 0x20000000, Type = 0xFFFFFFF2)
T143C 000:376.363   CPU_ReadMem(2 bytes @ 0x20000000)
T143C 000:377.422 - 1.079ms returns 0x00000001
T143C 000:377.440 JLINK_Go()
T143C 000:377.453   CPU_WriteMem(2 bytes @ 0x20000000)
T143C 000:378.614   CPU_ReadMem(4 bytes @ 0xE0001000)
T143C 000:379.729   CPU_WriteMem(4 bytes @ 0xE0002008)
T143C 000:379.743   CPU_WriteMem(4 bytes @ 0xE000200C)
T143C 000:379.750   CPU_WriteMem(4 bytes @ 0xE0002010)
T143C 000:379.757   CPU_WriteMem(4 bytes @ 0xE0002014)
T143C 000:379.764   CPU_WriteMem(4 bytes @ 0xE0002018)
T143C 000:379.771   CPU_WriteMem(4 bytes @ 0xE000201C)
T143C 000:386.112   CPU_WriteMem(4 bytes @ 0xE0001004)
T143C 000:396.142 - 18.712ms
T143C 000:396.166 JLINK_IsHalted()
T143C 000:406.494   CPU_ReadMem(2 bytes @ 0x20000000)
T143C 000:407.611 - 11.455ms returns TRUE
T143C 000:407.633 JLINK_ReadReg(R15 (PC))
T143C 000:407.646 - 0.016ms returns 0x20000000
T143C 000:407.656 JLINK_ClrBPEx(BPHandle = 0x00000001)
T143C 000:407.663 - 0.010ms returns 0x00
T143C 000:407.672 JLINK_ReadReg(R0)
T143C 000:407.679 - 0.010ms returns 0x00000000
T143C 000:408.207 JLINK_HasError()
T143C 000:408.225 JLINK_WriteReg(R0, 0x08000000)
T143C 000:408.235 - 0.013ms returns 0
T143C 000:408.242 JLINK_WriteReg(R1, 0x00004000)
T143C 000:408.249 - 0.009ms returns 0
T143C 000:408.256 JLINK_WriteReg(R2, 0x000000FF)
T143C 000:408.263 - 0.009ms returns 0
T143C 000:408.270 JLINK_WriteReg(R3, 0x00000000)
T143C 000:408.276 - 0.012ms returns 0
T143C 000:408.286 JLINK_WriteReg(R4, 0x00000000)
T143C 000:408.293 - 0.009ms returns 0
T143C 000:408.300 JLINK_WriteReg(R5, 0x00000000)
T143C 000:408.306 - 0.009ms returns 0
T143C 000:408.313 JLINK_WriteReg(R6, 0x00000000)
T143C 000:408.319 - 0.009ms returns 0
T143C 000:408.327 JLINK_WriteReg(R7, 0x00000000)
T143C 000:408.333 - 0.009ms returns 0
T143C 000:408.340 JLINK_WriteReg(R8, 0x00000000)
T143C 000:408.346 - 0.009ms returns 0
T143C 000:408.353 JLINK_WriteReg(R9, 0x2000017C)
T143C 000:408.360 - 0.009ms returns 0
T143C 000:408.367 JLINK_WriteReg(R10, 0x00000000)
T143C 000:408.442 - 0.079ms returns 0
T143C 000:408.450 JLINK_WriteReg(R11, 0x00000000)
T143C 000:408.457 - 0.009ms returns 0
T143C 000:408.464 JLINK_WriteReg(R12, 0x00000000)
T143C 000:408.470 - 0.009ms returns 0
T143C 000:408.477 JLINK_WriteReg(R13 (SP), 0x20001000)
T143C 000:408.485 - 0.010ms returns 0
T143C 000:408.492 JLINK_WriteReg(R14, 0x20000001)
T143C 000:408.499 - 0.009ms returns 0
T143C 000:408.506 JLINK_WriteReg(R15 (PC), 0x20000020)
T143C 000:408.513 - 0.010ms returns 0
T143C 000:408.520 JLINK_WriteReg(XPSR, 0x01000000)
T143C 000:408.528 - 0.009ms returns 0
T143C 000:408.533 JLINK_WriteReg(MSP, 0x20001000)
T143C 000:408.538 - 0.007ms returns 0
T143C 000:408.544 JLINK_WriteReg(PSP, 0x20001000)
T143C 000:408.548 - 0.007ms returns 0
T143C 000:408.554 JLINK_WriteReg(CFBP, 0x00000000)
T143C 000:408.559 - 0.007ms returns 0
T143C 000:408.565 JLINK_SetBPEx(Addr = 0x20000000, Type = 0xFFFFFFF2)
T143C 000:408.571 - 0.008ms returns 0x00000002
T143C 000:408.577 JLINK_Go()
T143C 000:408.593   CPU_ReadMem(4 bytes @ 0xE0001000)
T143C 000:418.758 - 10.191ms
T143C 000:418.777 JLINK_IsHalted()
T143C 000:429.139   CPU_ReadMem(2 bytes @ 0x20000000)
T143C 000:430.243 - 11.475ms returns TRUE
T143C 000:430.261 JLINK_ReadReg(R15 (PC))
T143C 000:430.273 - 0.017ms returns 0x20000000
T143C 000:430.284 JLINK_ClrBPEx(BPHandle = 0x00000002)
T143C 000:430.291 - 0.010ms returns 0x00
T143C 000:430.298 JLINK_ReadReg(R0)
T143C 000:430.303 - 0.007ms returns 0x00000001
T143C 000:430.310 JLINK_HasError()
T143C 000:430.316 JLINK_WriteReg(R0, 0x08000000)
T143C 000:430.322 - 0.008ms returns 0
T143C 000:430.327 JLINK_WriteReg(R1, 0x00004000)
T143C 000:430.332 - 0.007ms returns 0
T143C 000:430.338 JLINK_WriteReg(R2, 0x000000FF)
T143C 000:430.343 - 0.007ms returns 0
T143C 000:430.348 JLINK_WriteReg(R3, 0x00000000)
T143C 000:430.353 - 0.007ms returns 0
T143C 000:430.358 JLINK_WriteReg(R4, 0x00000000)
T143C 000:430.363 - 0.007ms returns 0
T143C 000:430.369 JLINK_WriteReg(R5, 0x00000000)
T143C 000:430.374 - 0.007ms returns 0
T143C 000:430.379 JLINK_WriteReg(R6, 0x00000000)
T143C 000:430.384 - 0.007ms returns 0
T143C 000:430.390 JLINK_WriteReg(R7, 0x00000000)
T143C 000:430.395 - 0.007ms returns 0
T143C 000:430.400 JLINK_WriteReg(R8, 0x00000000)
T143C 000:430.405 - 0.007ms returns 0
T143C 000:430.410 JLINK_WriteReg(R9, 0x2000017C)
T143C 000:430.415 - 0.007ms returns 0
T143C 000:430.421 JLINK_WriteReg(R10, 0x00000000)
T143C 000:430.426 - 0.007ms returns 0
T143C 000:430.431 JLINK_WriteReg(R11, 0x00000000)
T143C 000:430.436 - 0.007ms returns 0
T143C 000:430.441 JLINK_WriteReg(R12, 0x00000000)
T143C 000:430.446 - 0.007ms returns 0
T143C 000:430.452 JLINK_WriteReg(R13 (SP), 0x20001000)
T143C 000:430.457 - 0.007ms returns 0
T143C 000:430.463 JLINK_WriteReg(R14, 0x20000001)
T143C 000:430.468 - 0.007ms returns 0
T143C 000:430.473 JLINK_WriteReg(R15 (PC), 0x200000BC)
T143C 000:430.478 - 0.007ms returns 0
T143C 000:430.483 JLINK_WriteReg(XPSR, 0x01000000)
T143C 000:430.489 - 0.007ms returns 0
T143C 000:430.494 JLINK_WriteReg(MSP, 0x20001000)
T143C 000:430.499 - 0.007ms returns 0
T143C 000:430.504 JLINK_WriteReg(PSP, 0x20001000)
T143C 000:430.509 - 0.007ms returns 0
T143C 000:430.515 JLINK_WriteReg(CFBP, 0x00000000)
T143C 000:430.519 - 0.007ms returns 0
T143C 000:430.525 JLINK_SetBPEx(Addr = 0x20000000, Type = 0xFFFFFFF2)
T143C 000:430.531 - 0.008ms returns 0x00000003
T143C 000:430.537 JLINK_Go()
T143C 000:430.548   CPU_ReadMem(4 bytes @ 0xE0001000)
T143C 000:440.623 - 10.094ms
T143C 000:440.642 JLINK_IsHalted()
T143C 000:441.665 - 1.029ms returns FALSE
T143C 000:441.682 JLINK_HasError()
T143C 000:460.299 JLINK_IsHalted()
T143C 000:461.416 - 1.123ms returns FALSE
T143C 000:461.429 JLINK_HasError()
T143C 000:463.296 JLINK_IsHalted()
T143C 000:464.340 - 1.051ms returns FALSE
T143C 000:464.354 JLINK_HasError()
T143C 000:466.302 JLINK_IsHalted()
T143C 000:467.459 - 1.171ms returns FALSE
T143C 000:467.487 JLINK_HasError()
T143C 000:469.290 JLINK_IsHalted()
T143C 000:470.536 - 1.257ms returns FALSE
T143C 000:470.555 JLINK_HasError()
T143C 000:472.319 JLINK_IsHalted()
T143C 000:473.394 - 1.084ms returns FALSE
T143C 000:473.410 JLINK_HasError()
T143C 000:475.291 JLINK_IsHalted()
T143C 000:476.342 - 1.059ms returns FALSE
T143C 000:476.356 JLINK_HasError()
T143C 000:478.299 JLINK_IsHalted()
T143C 000:479.375 - 1.084ms returns FALSE
T143C 000:479.390 JLINK_HasError()
T143C 000:481.285 JLINK_IsHalted()
T143C 000:482.356 - 1.084ms returns FALSE
T143C 000:482.376 JLINK_HasError()
T143C 000:484.337 JLINK_IsHalted()
T143C 000:485.445 - 1.113ms returns FALSE
T143C 000:485.457 JLINK_HasError()
T143C 000:487.316 JLINK_IsHalted()
T143C 000:488.368 - 1.062ms returns FALSE
T143C 000:488.386 JLINK_HasError()
T143C 000:490.310 JLINK_IsHalted()
T143C 000:491.367 - 1.065ms returns FALSE
T143C 000:491.381 JLINK_HasError()
T143C 000:493.318 JLINK_IsHalted()
T143C 000:494.404 - 1.095ms returns FALSE
T143C 000:494.425 JLINK_HasError()
T143C 000:496.298 JLINK_IsHalted()
T143C 000:497.366 - 1.074ms returns FALSE
T143C 000:497.377 JLINK_HasError()
T143C 000:499.303 JLINK_IsHalted()
T143C 000:509.564   CPU_ReadMem(2 bytes @ 0x20000000)
T143C 000:510.638 - 11.342ms returns TRUE
T143C 000:510.651 JLINK_ReadReg(R15 (PC))
T143C 000:510.660 - 0.011ms returns 0x20000000
T143C 000:510.666 JLINK_ClrBPEx(BPHandle = 0x00000003)
T143C 000:510.672 - 0.007ms returns 0x00
T143C 000:510.678 JLINK_ReadReg(R0)
T143C 000:510.683 - 0.007ms returns 0x00000000
T143C 000:511.088 JLINK_HasError()
T143C 000:511.098 JLINK_WriteReg(R0, 0x08004000)
T143C 000:511.105 - 0.009ms returns 0
T143C 000:511.110 JLINK_WriteReg(R1, 0x00004000)
T143C 000:511.115 - 0.007ms returns 0
T143C 000:511.121 JLINK_WriteReg(R2, 0x000000FF)
T143C 000:511.126 - 0.007ms returns 0
T143C 000:511.131 JLINK_WriteReg(R3, 0x00000000)
T143C 000:511.136 - 0.007ms returns 0
T143C 000:511.142 JLINK_WriteReg(R4, 0x00000000)
T143C 000:511.146 - 0.007ms returns 0
T143C 000:511.152 JLINK_WriteReg(R5, 0x00000000)
T143C 000:511.157 - 0.007ms returns 0
T143C 000:511.162 JLINK_WriteReg(R6, 0x00000000)
T143C 000:511.167 - 0.007ms returns 0
T143C 000:511.172 JLINK_WriteReg(R7, 0x00000000)
T143C 000:511.177 - 0.007ms returns 0
T143C 000:511.183 JLINK_WriteReg(R8, 0x00000000)
T143C 000:511.188 - 0.007ms returns 0
T143C 000:511.193 JLINK_WriteReg(R9, 0x2000017C)
T143C 000:511.198 - 0.007ms returns 0
T143C 000:511.203 JLINK_WriteReg(R10, 0x00000000)
T143C 000:511.208 - 0.007ms returns 0
T143C 000:511.214 JLINK_WriteReg(R11, 0x00000000)
T143C 000:511.218 - 0.007ms returns 0
T143C 000:511.224 JLINK_WriteReg(R12, 0x00000000)
T143C 000:511.229 - 0.007ms returns 0
T143C 000:511.234 JLINK_WriteReg(R13 (SP), 0x20001000)
T143C 000:511.240 - 0.007ms returns 0
T143C 000:511.245 JLINK_WriteReg(R14, 0x20000001)
T143C 000:511.250 - 0.007ms returns 0
T143C 000:511.255 JLINK_WriteReg(R15 (PC), 0x20000020)
T143C 000:511.260 - 0.007ms returns 0
T143C 000:511.266 JLINK_WriteReg(XPSR, 0x01000000)
T143C 000:511.271 - 0.007ms returns 0
T143C 000:511.278 JLINK_WriteReg(MSP, 0x20001000)
T143C 000:511.283 - 0.007ms returns 0
T143C 000:511.288 JLINK_WriteReg(PSP, 0x20001000)
T143C 000:511.293 - 0.007ms returns 0
T143C 000:511.299 JLINK_WriteReg(CFBP, 0x00000000)
T143C 000:511.304 - 0.007ms returns 0
T143C 000:511.309 JLINK_SetBPEx(Addr = 0x20000000, Type = 0xFFFFFFF2)
T143C 000:511.316 - 0.008ms returns 0x00000004
T143C 000:511.321 JLINK_Go()
T143C 000:511.333   CPU_ReadMem(4 bytes @ 0xE0001000)
T143C 000:521.397 - 10.086ms
T143C 000:521.419 JLINK_IsHalted()
T143C 000:531.696   CPU_ReadMem(2 bytes @ 0x20000000)
T143C 000:532.805 - 11.405ms returns TRUE
T143C 000:532.841 JLINK_ReadReg(R15 (PC))
T143C 000:532.861 - 0.023ms returns 0x20000000
T143C 000:532.870 JLINK_ClrBPEx(BPHandle = 0x00000004)
T143C 000:532.878 - 0.011ms returns 0x00
T143C 000:532.888 JLINK_ReadReg(R0)
T143C 000:532.895 - 0.010ms returns 0x00000001
T143C 000:532.906 JLINK_HasError()
T143C 000:532.918 JLINK_WriteReg(R0, 0x08004000)
T143C 000:532.932 - 0.021ms returns 0
T143C 000:532.945 JLINK_WriteReg(R1, 0x00004000)
T143C 000:532.952 - 0.010ms returns 0
T143C 000:532.961 JLINK_WriteReg(R2, 0x000000FF)
T143C 000:532.968 - 0.010ms returns 0
T143C 000:532.978 JLINK_WriteReg(R3, 0x00000000)
T143C 000:532.984 - 0.010ms returns 0
T143C 000:532.993 JLINK_WriteReg(R4, 0x00000000)
T143C 000:533.000 - 0.010ms returns 0
T143C 000:533.009 JLINK_WriteReg(R5, 0x00000000)
T143C 000:533.016 - 0.010ms returns 0
T143C 000:533.025 JLINK_WriteReg(R6, 0x00000000)
T143C 000:533.032 - 0.010ms returns 0
T143C 000:533.041 JLINK_WriteReg(R7, 0x00000000)
T143C 000:533.048 - 0.010ms returns 0
T143C 000:533.057 JLINK_WriteReg(R8, 0x00000000)
T143C 000:533.064 - 0.010ms returns 0
T143C 000:533.073 JLINK_WriteReg(R9, 0x2000017C)
T143C 000:533.079 - 0.009ms returns 0
T143C 000:533.089 JLINK_WriteReg(R10, 0x00000000)
T143C 000:533.096 - 0.010ms returns 0
T143C 000:533.105 JLINK_WriteReg(R11, 0x00000000)
T143C 000:533.112 - 0.010ms returns 0
T143C 000:533.120 JLINK_WriteReg(R12, 0x00000000)
T143C 000:533.127 - 0.010ms returns 0
T143C 000:533.136 JLINK_WriteReg(R13 (SP), 0x20001000)
T143C 000:533.144 - 0.011ms returns 0
T143C 000:533.153 JLINK_WriteReg(R14, 0x20000001)
T143C 000:533.160 - 0.010ms returns 0
T143C 000:533.169 JLINK_WriteReg(R15 (PC), 0x200000BC)
T143C 000:533.176 - 0.010ms returns 0
T143C 000:533.185 JLINK_WriteReg(XPSR, 0x01000000)
T143C 000:533.192 - 0.010ms returns 0
T143C 000:533.202 JLINK_WriteReg(MSP, 0x20001000)
T143C 000:533.209 - 0.010ms returns 0
T143C 000:533.219 JLINK_WriteReg(PSP, 0x20001000)
T143C 000:533.226 - 0.010ms returns 0
T143C 000:533.235 JLINK_WriteReg(CFBP, 0x00000000)
T143C 000:533.242 - 0.010ms returns 0
T143C 000:533.251 JLINK_SetBPEx(Addr = 0x20000000, Type = 0xFFFFFFF2)
T143C 000:533.259 - 0.011ms returns 0x00000005
T143C 000:533.268 JLINK_Go()
T143C 000:533.299   CPU_ReadMem(4 bytes @ 0xE0001000)
T143C 000:543.371 - 10.115ms
T143C 000:543.396 JLINK_IsHalted()
T143C 000:544.436 - 1.047ms returns FALSE
T143C 000:544.452 JLINK_HasError()
T143C 000:546.286 JLINK_IsHalted()
T143C 000:547.325 - 1.045ms returns FALSE
T143C 000:547.338 JLINK_HasError()
T143C 000:549.320 JLINK_IsHalted()
T143C 000:550.416 - 1.104ms returns FALSE
T143C 000:550.430 JLINK_HasError()
T143C 000:552.317 JLINK_IsHalted()
T143C 000:553.391 - 1.083ms returns FALSE
T143C 000:553.406 JLINK_HasError()
T143C 000:555.290 JLINK_IsHalted()
T143C 000:556.346 - 1.062ms returns FALSE
T143C 000:556.359 JLINK_HasError()
T143C 000:559.291 JLINK_IsHalted()
T143C 000:560.338 - 1.056ms returns FALSE
T143C 000:560.353 JLINK_HasError()
T143C 000:562.322 JLINK_IsHalted()
T143C 000:563.392 - 1.079ms returns FALSE
T143C 000:563.408 JLINK_HasError()
T143C 000:565.282 JLINK_IsHalted()
T143C 000:566.340 - 1.063ms returns FALSE
T143C 000:566.351 JLINK_HasError()
T143C 000:568.326 JLINK_IsHalted()
T143C 000:569.418 - 1.101ms returns FALSE
T143C 000:569.439 JLINK_HasError()
T143C 000:571.322 JLINK_IsHalted()
T143C 000:572.367 - 1.052ms returns FALSE
T143C 000:572.381 JLINK_HasError()
T143C 000:574.323 JLINK_IsHalted()
T143C 000:575.418 - 1.103ms returns FALSE
T143C 000:575.433 JLINK_HasError()
T143C 000:577.316 JLINK_IsHalted()
T143C 000:578.373 - 1.070ms returns FALSE
T143C 000:578.395 JLINK_HasError()
T143C 000:580.322 JLINK_IsHalted()
T143C 000:581.391 - 1.077ms returns FALSE
T143C 000:581.406 JLINK_HasError()
T143C 000:583.317 JLINK_IsHalted()
T143C 000:584.399 - 1.092ms returns FALSE
T143C 000:584.418 JLINK_HasError()
T143C 000:586.324 JLINK_IsHalted()
T143C 000:587.397 - 1.082ms returns FALSE
T143C 000:587.414 JLINK_HasError()
T143C 000:589.317 JLINK_IsHalted()
T143C 000:590.393 - 1.084ms returns FALSE
T143C 000:590.409 JLINK_HasError()
T143C 000:592.318 JLINK_IsHalted()
T143C 000:593.397 - 1.089ms returns FALSE
T143C 000:593.414 JLINK_HasError()
T143C 000:595.319 JLINK_IsHalted()
T143C 000:596.397 - 1.085ms returns FALSE
T143C 000:596.411 JLINK_HasError()
T143C 000:598.291 JLINK_IsHalted()
T143C 000:599.403 - 1.122ms returns FALSE
T143C 000:599.421 JLINK_HasError()
T143C 000:601.318 JLINK_IsHalted()
T143C 000:611.637   CPU_ReadMem(2 bytes @ 0x20000000)
T143C 000:612.717 - 11.405ms returns TRUE
T143C 000:612.731 JLINK_ReadReg(R15 (PC))
T143C 000:612.740 - 0.011ms returns 0x20000000
T143C 000:612.746 JLINK_ClrBPEx(BPHandle = 0x00000005)
T143C 000:612.752 - 0.008ms returns 0x00
T143C 000:612.757 JLINK_ReadReg(R0)
T143C 000:612.762 - 0.007ms returns 0x00000000
T143C 000:613.219 JLINK_HasError()
T143C 000:613.233 JLINK_WriteReg(R0, 0x08008000)
T143C 000:613.241 - 0.010ms returns 0
T143C 000:613.247 JLINK_WriteReg(R1, 0x00004000)
T143C 000:613.252 - 0.007ms returns 0
T143C 000:613.258 JLINK_WriteReg(R2, 0x000000FF)
T143C 000:613.263 - 0.007ms returns 0
T143C 000:613.268 JLINK_WriteReg(R3, 0x00000000)
T143C 000:613.293 - 0.027ms returns 0
T143C 000:613.299 JLINK_WriteReg(R4, 0x00000000)
T143C 000:613.304 - 0.007ms returns 0
T143C 000:613.310 JLINK_WriteReg(R5, 0x00000000)
T143C 000:613.315 - 0.007ms returns 0
T143C 000:613.321 JLINK_WriteReg(R6, 0x00000000)
T143C 000:613.326 - 0.007ms returns 0
T143C 000:613.332 JLINK_WriteReg(R7, 0x00000000)
T143C 000:613.337 - 0.007ms returns 0
T143C 000:613.342 JLINK_WriteReg(R8, 0x00000000)
T143C 000:613.348 - 0.008ms returns 0
T143C 000:613.355 JLINK_WriteReg(R9, 0x2000017C)
T143C 000:613.363 - 0.010ms returns 0
T143C 000:613.369 JLINK_WriteReg(R10, 0x00000000)
T143C 000:613.374 - 0.007ms returns 0
T143C 000:613.379 JLINK_WriteReg(R11, 0x00000000)
T143C 000:613.384 - 0.007ms returns 0
T143C 000:613.390 JLINK_WriteReg(R12, 0x00000000)
T143C 000:613.395 - 0.007ms returns 0
T143C 000:613.400 JLINK_WriteReg(R13 (SP), 0x20001000)
T143C 000:613.406 - 0.008ms returns 0
T143C 000:613.411 JLINK_WriteReg(R14, 0x20000001)
T143C 000:613.416 - 0.007ms returns 0
T143C 000:613.422 JLINK_WriteReg(R15 (PC), 0x20000020)
T143C 000:613.427 - 0.007ms returns 0
T143C 000:613.433 JLINK_WriteReg(XPSR, 0x01000000)
T143C 000:613.438 - 0.007ms returns 0
T143C 000:613.443 JLINK_WriteReg(MSP, 0x20001000)
T143C 000:613.448 - 0.007ms returns 0
T143C 000:613.454 JLINK_WriteReg(PSP, 0x20001000)
T143C 000:613.459 - 0.007ms returns 0
T143C 000:613.464 JLINK_WriteReg(CFBP, 0x00000000)
T143C 000:613.469 - 0.007ms returns 0
T143C 000:613.475 JLINK_SetBPEx(Addr = 0x20000000, Type = 0xFFFFFFF2)
T143C 000:613.481 - 0.008ms returns 0x00000006
T143C 000:613.487 JLINK_Go()
T143C 000:613.501   CPU_ReadMem(4 bytes @ 0xE0001000)
T143C 000:623.801 - 10.326ms
T143C 000:623.827 JLINK_IsHalted()
T143C 000:634.194   CPU_ReadMem(2 bytes @ 0x20000000)
T143C 000:635.270 - 11.453ms returns TRUE
T143C 000:635.295 JLINK_ReadReg(R15 (PC))
T143C 000:635.307 - 0.014ms returns 0x20000000
T143C 000:635.316 JLINK_ClrBPEx(BPHandle = 0x00000006)
T143C 000:635.324 - 0.011ms returns 0x00
T143C 000:635.334 JLINK_ReadReg(R0)
T143C 000:635.340 - 0.010ms returns 0x00000001
T143C 000:635.351 JLINK_HasError()
T143C 000:635.361 JLINK_WriteReg(R0, 0x08008000)
T143C 000:635.368 - 0.010ms returns 0
T143C 000:635.377 JLINK_WriteReg(R1, 0x00004000)
T143C 000:635.384 - 0.010ms returns 0
T143C 000:635.393 JLINK_WriteReg(R2, 0x000000FF)
T143C 000:635.400 - 0.010ms returns 0
T143C 000:635.409 JLINK_WriteReg(R3, 0x00000000)
T143C 000:635.416 - 0.010ms returns 0
T143C 000:635.425 JLINK_WriteReg(R4, 0x00000000)
T143C 000:635.432 - 0.010ms returns 0
T143C 000:635.441 JLINK_WriteReg(R5, 0x00000000)
T143C 000:635.447 - 0.009ms returns 0
T143C 000:635.457 JLINK_WriteReg(R6, 0x00000000)
T143C 000:635.463 - 0.009ms returns 0
T143C 000:635.472 JLINK_WriteReg(R7, 0x00000000)
T143C 000:635.479 - 0.009ms returns 0
T143C 000:635.488 JLINK_WriteReg(R8, 0x00000000)
T143C 000:635.494 - 0.009ms returns 0
T143C 000:635.503 JLINK_WriteReg(R9, 0x2000017C)
T143C 000:635.510 - 0.009ms returns 0
T143C 000:635.519 JLINK_WriteReg(R10, 0x00000000)
T143C 000:635.526 - 0.010ms returns 0
T143C 000:635.535 JLINK_WriteReg(R11, 0x00000000)
T143C 000:635.541 - 0.009ms returns 0
T143C 000:635.550 JLINK_WriteReg(R12, 0x00000000)
T143C 000:635.613 - 0.065ms returns 0
T143C 000:635.622 JLINK_WriteReg(R13 (SP), 0x20001000)
T143C 000:635.630 - 0.010ms returns 0
T143C 000:635.639 JLINK_WriteReg(R14, 0x20000001)
T143C 000:635.646 - 0.010ms returns 0
T143C 000:635.655 JLINK_WriteReg(R15 (PC), 0x200000BC)
T143C 000:635.661 - 0.010ms returns 0
T143C 000:635.671 JLINK_WriteReg(XPSR, 0x01000000)
T143C 000:635.677 - 0.010ms returns 0
T143C 000:635.686 JLINK_WriteReg(MSP, 0x20001000)
T143C 000:635.693 - 0.010ms returns 0
T143C 000:635.702 JLINK_WriteReg(PSP, 0x20001000)
T143C 000:635.709 - 0.010ms returns 0
T143C 000:635.718 JLINK_WriteReg(CFBP, 0x00000000)
T143C 000:635.725 - 0.010ms returns 0
T143C 000:635.734 JLINK_SetBPEx(Addr = 0x20000000, Type = 0xFFFFFFF2)
T143C 000:635.742 - 0.011ms returns 0x00000007
T143C 000:635.751 JLINK_Go()
T143C 000:635.766   CPU_ReadMem(4 bytes @ 0xE0001000)
T143C 000:645.858 - 10.119ms
T143C 000:645.883 JLINK_IsHalted()
T143C 000:646.915 - 1.039ms returns FALSE
T143C 000:646.932 JLINK_HasError()
T143C 000:648.288 JLINK_IsHalted()
T143C 000:649.317 - 1.041ms returns FALSE
T143C 000:649.338 JLINK_HasError()
T143C 000:653.285 JLINK_IsHalted()
T143C 000:654.339 - 1.064ms returns FALSE
T143C 000:654.357 JLINK_HasError()
T143C 000:656.302 JLINK_IsHalted()
T143C 000:657.364 - 1.069ms returns FALSE
T143C 000:657.378 JLINK_HasError()
T143C 000:659.283 JLINK_IsHalted()
T143C 000:660.338 - 1.061ms returns FALSE
T143C 000:660.350 JLINK_HasError()
T143C 000:662.301 JLINK_IsHalted()
T143C 000:663.367 - 1.074ms returns FALSE
T143C 000:663.383 JLINK_HasError()
T143C 000:665.324 JLINK_IsHalted()
T143C 000:666.428 - 1.111ms returns FALSE
T143C 000:666.441 JLINK_HasError()
T143C 000:669.318 JLINK_IsHalted()
T143C 000:670.418 - 1.108ms returns FALSE
T143C 000:670.432 JLINK_HasError()
T143C 000:672.319 JLINK_IsHalted()
T143C 000:673.346 - 1.036ms returns FALSE
T143C 000:673.368 JLINK_HasError()
T143C 000:675.319 JLINK_IsHalted()
T143C 000:676.391 - 1.080ms returns FALSE
T143C 000:676.405 JLINK_HasError()
T143C 000:678.320 JLINK_IsHalted()
T143C 000:679.391 - 1.076ms returns FALSE
T143C 000:679.403 JLINK_HasError()
T143C 000:681.315 JLINK_IsHalted()
T143C 000:682.514 - 1.213ms returns FALSE
T143C 000:682.537 JLINK_HasError()
T143C 000:684.328 JLINK_IsHalted()
T143C 000:685.421 - 1.103ms returns FALSE
T143C 000:685.438 JLINK_HasError()
T143C 000:687.318 JLINK_IsHalted()
T143C 000:688.399 - 1.088ms returns FALSE
T143C 000:688.412 JLINK_HasError()
T143C 000:690.315 JLINK_IsHalted()
T143C 000:691.350 - 1.045ms returns FALSE
T143C 000:691.369 JLINK_HasError()
T143C 000:693.316 JLINK_IsHalted()
T143C 000:694.359 - 1.050ms returns FALSE
T143C 000:694.373 JLINK_HasError()
T143C 000:696.316 JLINK_IsHalted()
T143C 000:697.351 - 1.045ms returns FALSE
T143C 000:697.371 JLINK_HasError()
T143C 000:699.288 JLINK_IsHalted()
T143C 000:700.343 - 1.063ms returns FALSE
T143C 000:700.359 JLINK_HasError()
T143C 000:702.294 JLINK_IsHalted()
T143C 000:703.372 - 1.086ms returns FALSE
T143C 000:703.387 JLINK_HasError()
T143C 000:705.303 JLINK_IsHalted()
T143C 000:715.624   CPU_ReadMem(2 bytes @ 0x20000000)
T143C 000:716.795 - 11.510ms returns TRUE
T143C 000:716.832 JLINK_ReadReg(R15 (PC))
T143C 000:716.858 - 0.034ms returns 0x20000000
T143C 000:716.879 JLINK_ClrBPEx(BPHandle = 0x00000007)
T143C 000:716.898 - 0.027ms returns 0x00
T143C 000:716.917 JLINK_ReadReg(R0)
T143C 000:716.935 - 0.025ms returns 0x00000000
T143C 000:717.752 JLINK_HasError()
T143C 000:717.778 JLINK_WriteReg(R0, 0x00000001)
T143C 000:717.795 - 0.023ms returns 0
T143C 000:717.810 JLINK_WriteReg(R1, 0x00004000)
T143C 000:717.823 - 0.018ms returns 0
T143C 000:717.837 JLINK_WriteReg(R2, 0x000000FF)
T143C 000:717.850 - 0.019ms returns 0
T143C 000:717.864 JLINK_WriteReg(R3, 0x00000000)
T143C 000:717.877 - 0.018ms returns 0
T143C 000:717.891 JLINK_WriteReg(R4, 0x00000000)
T143C 000:717.903 - 0.018ms returns 0
T143C 000:717.917 JLINK_WriteReg(R5, 0x00000000)
T143C 000:717.930 - 0.018ms returns 0
T143C 000:717.951 JLINK_WriteReg(R6, 0x00000000)
T143C 000:717.967 - 0.022ms returns 0
T143C 000:717.981 JLINK_WriteReg(R7, 0x00000000)
T143C 000:717.994 - 0.018ms returns 0
T143C 000:718.008 JLINK_WriteReg(R8, 0x00000000)
T143C 000:718.020 - 0.018ms returns 0
T143C 000:718.035 JLINK_WriteReg(R9, 0x2000017C)
T143C 000:718.047 - 0.018ms returns 0
T143C 000:718.061 JLINK_WriteReg(R10, 0x00000000)
T143C 000:718.074 - 0.019ms returns 0
T143C 000:718.088 JLINK_WriteReg(R11, 0x00000000)
T143C 000:718.101 - 0.018ms returns 0
T143C 000:718.115 JLINK_WriteReg(R12, 0x00000000)
T143C 000:718.127 - 0.018ms returns 0
T143C 000:718.141 JLINK_WriteReg(R13 (SP), 0x20001000)
T143C 000:718.156 - 0.020ms returns 0
T143C 000:718.169 JLINK_WriteReg(R14, 0x20000001)
T143C 000:718.182 - 0.019ms returns 0
T143C 000:718.196 JLINK_WriteReg(R15 (PC), 0x20000082)
T143C 000:718.210 - 0.019ms returns 0
T143C 000:718.223 JLINK_WriteReg(XPSR, 0x01000000)
T143C 000:718.236 - 0.019ms returns 0
T143C 000:718.251 JLINK_WriteReg(MSP, 0x20001000)
T143C 000:718.269 - 0.056ms returns 0
T143C 000:718.320 JLINK_WriteReg(PSP, 0x20001000)
T143C 000:718.339 - 0.025ms returns 0
T143C 000:718.354 JLINK_WriteReg(CFBP, 0x00000000)
T143C 000:718.367 - 0.019ms returns 0
T143C 000:718.381 JLINK_SetBPEx(Addr = 0x20000000, Type = 0xFFFFFFF2)
T143C 000:718.397 - 0.021ms returns 0x00000008
T143C 000:718.411 JLINK_Go()
T143C 000:718.439   CPU_ReadMem(4 bytes @ 0xE0001000)
T143C 000:728.626 - 10.230ms
T143C 000:728.659 JLINK_IsHalted()
T143C 000:738.962   CPU_ReadMem(2 bytes @ 0x20000000)
T143C 000:740.061 - 11.409ms returns TRUE
T143C 000:740.080 JLINK_ReadReg(R15 (PC))
T143C 000:740.089 - 0.011ms returns 0x20000000
T143C 000:740.098 JLINK_ClrBPEx(BPHandle = 0x00000008)
T143C 000:740.105 - 0.010ms returns 0x00
T143C 000:740.115 JLINK_ReadReg(R0)
T143C 000:740.121 - 0.010ms returns 0x00000000
T143C 000:795.744 JLINK_WriteMem(0x20000000, 0x180 Bytes, ...)
T143C 000:795.757   Data:  00 BE 0A E0 0D 78 2D 06 68 40 08 24 40 00 00 D3 ...
T143C 000:795.777   CPU_WriteMem(384 bytes @ 0x20000000)
T143C 000:812.507 - 16.774ms returns 0x180
T143C 000:812.554 JLINK_HasError()
T143C 000:812.563 JLINK_WriteReg(R0, 0x08000000)
T143C 000:812.574 - 0.013ms returns 0
T143C 000:812.580 JLINK_WriteReg(R1, 0x00B71B00)
T143C 000:812.586 - 0.007ms returns 0
T143C 000:812.591 JLINK_WriteReg(R2, 0x00000002)
T143C 000:812.596 - 0.007ms returns 0
T143C 000:812.602 JLINK_WriteReg(R3, 0x00000000)
T143C 000:812.607 - 0.007ms returns 0
T143C 000:812.612 JLINK_WriteReg(R4, 0x00000000)
T143C 000:812.617 - 0.007ms returns 0
T143C 000:812.622 JLINK_WriteReg(R5, 0x00000000)
T143C 000:812.627 - 0.007ms returns 0
T143C 000:812.633 JLINK_WriteReg(R6, 0x00000000)
T143C 000:812.638 - 0.007ms returns 0
T143C 000:812.643 JLINK_WriteReg(R7, 0x00000000)
T143C 000:812.648 - 0.007ms returns 0
T143C 000:812.654 JLINK_WriteReg(R8, 0x00000000)
T143C 000:812.659 - 0.007ms returns 0
T143C 000:812.665 JLINK_WriteReg(R9, 0x2000017C)
T143C 000:812.669 - 0.007ms returns 0
T143C 000:812.675 JLINK_WriteReg(R10, 0x00000000)
T143C 000:812.680 - 0.007ms returns 0
T143C 000:812.686 JLINK_WriteReg(R11, 0x00000000)
T143C 000:812.691 - 0.007ms returns 0
T143C 000:812.696 JLINK_WriteReg(R12, 0x00000000)
T143C 000:812.701 - 0.007ms returns 0
T143C 000:812.706 JLINK_WriteReg(R13 (SP), 0x20001000)
T143C 000:812.713 - 0.008ms returns 0
T143C 000:812.718 JLINK_WriteReg(R14, 0x20000001)
T143C 000:812.723 - 0.007ms returns 0
T143C 000:812.729 JLINK_WriteReg(R15 (PC), 0x20000054)
T143C 000:812.734 - 0.007ms returns 0
T143C 000:812.739 JLINK_WriteReg(XPSR, 0x01000000)
T143C 000:812.744 - 0.007ms returns 0
T143C 000:812.750 JLINK_WriteReg(MSP, 0x20001000)
T143C 000:812.755 - 0.007ms returns 0
T143C 000:812.760 JLINK_WriteReg(PSP, 0x20001000)
T143C 000:812.765 - 0.007ms returns 0
T143C 000:812.771 JLINK_WriteReg(CFBP, 0x00000000)
T143C 000:812.776 - 0.007ms returns 0
T143C 000:812.782 JLINK_SetBPEx(Addr = 0x20000000, Type = 0xFFFFFFF2)
T143C 000:812.793   CPU_ReadMem(2 bytes @ 0x20000000)
T143C 000:813.866 - 1.089ms returns 0x00000009
T143C 000:813.876 JLINK_Go()
T143C 000:813.885   CPU_WriteMem(2 bytes @ 0x20000000)
T143C 000:815.087   CPU_ReadMem(4 bytes @ 0xE0001000)
T143C 000:825.214 - 11.348ms
T143C 000:825.237 JLINK_IsHalted()
T143C 000:835.541   CPU_ReadMem(2 bytes @ 0x20000000)
T143C 000:836.623 - 11.393ms returns TRUE
T143C 000:836.641 JLINK_ReadReg(R15 (PC))
T143C 000:836.651 - 0.012ms returns 0x20000000
T143C 000:836.657 JLINK_ClrBPEx(BPHandle = 0x00000009)
T143C 000:836.663 - 0.007ms returns 0x00
T143C 000:836.668 JLINK_ReadReg(R0)
T143C 000:836.674 - 0.007ms returns 0x00000000
T143C 000:837.008 JLINK_WriteMem(0x20000180, 0x280 Bytes, ...)
T143C 000:837.019   Data:  30 78 01 20 AD 01 00 08 2D 21 00 08 E9 17 00 08 ...
T143C 000:837.037   CPU_WriteMem(640 bytes @ 0x20000180)
T143C 000:863.945 - 26.950ms returns 0x280
T143C 000:863.975 JLINK_WriteMem(0x20000400, 0x180 Bytes, ...)
T143C 000:863.984   Data:  02 46 23 F0 00 40 10 43 47 D0 27 0D C7 F3 0A 00 ...
T143C 000:864.009   CPU_WriteMem(384 bytes @ 0x20000400)
T143C 000:880.787 - 16.823ms returns 0x180
T143C 000:880.814 JLINK_HasError()
T143C 000:880.827 JLINK_WriteReg(R0, 0x08000000)
T143C 000:880.842 - 0.018ms returns 0
T143C 000:880.853 JLINK_WriteReg(R1, 0x00000400)
T143C 000:880.860 - 0.010ms returns 0
T143C 000:880.866 JLINK_WriteReg(R2, 0x20000180)
T143C 000:880.872 - 0.007ms returns 0
T143C 000:880.877 JLINK_WriteReg(R3, 0x00000000)
T143C 000:880.882 - 0.007ms returns 0
T143C 000:880.922 JLINK_WriteReg(R4, 0x00000000)
T143C 000:880.928 - 0.009ms returns 0
T143C 000:880.934 JLINK_WriteReg(R5, 0x00000000)
T143C 000:880.940 - 0.007ms returns 0
T143C 000:880.945 JLINK_WriteReg(R6, 0x00000000)
T143C 000:880.950 - 0.007ms returns 0
T143C 000:880.956 JLINK_WriteReg(R7, 0x00000000)
T143C 000:880.961 - 0.007ms returns 0
T143C 000:880.967 JLINK_WriteReg(R8, 0x00000000)
T143C 000:880.972 - 0.007ms returns 0
T143C 000:880.978 JLINK_WriteReg(R9, 0x2000017C)
T143C 000:880.983 - 0.007ms returns 0
T143C 000:880.988 JLINK_WriteReg(R10, 0x00000000)
T143C 000:880.994 - 0.007ms returns 0
T143C 000:880.999 JLINK_WriteReg(R11, 0x00000000)
T143C 000:881.005 - 0.007ms returns 0
T143C 000:881.010 JLINK_WriteReg(R12, 0x00000000)
T143C 000:881.015 - 0.007ms returns 0
T143C 000:881.021 JLINK_WriteReg(R13 (SP), 0x20001000)
T143C 000:881.027 - 0.008ms returns 0
T143C 000:881.032 JLINK_WriteReg(R14, 0x20000001)
T143C 000:881.038 - 0.007ms returns 0
T143C 000:881.043 JLINK_WriteReg(R15 (PC), 0x20000108)
T143C 000:881.049 - 0.007ms returns 0
T143C 000:881.054 JLINK_WriteReg(XPSR, 0x01000000)
T143C 000:881.059 - 0.007ms returns 0
T143C 000:881.065 JLINK_WriteReg(MSP, 0x20001000)
T143C 000:881.070 - 0.007ms returns 0
T143C 000:881.075 JLINK_WriteReg(PSP, 0x20001000)
T143C 000:881.080 - 0.007ms returns 0
T143C 000:881.086 JLINK_WriteReg(CFBP, 0x00000000)
T143C 000:881.091 - 0.007ms returns 0
T143C 000:881.097 JLINK_SetBPEx(Addr = 0x20000000, Type = 0xFFFFFFF2)
T143C 000:881.103 - 0.009ms returns 0x0000000A
T143C 000:881.109 JLINK_Go()
T143C 000:881.123   CPU_ReadMem(4 bytes @ 0xE0001000)
T143C 000:891.242 - 10.146ms
T143C 000:891.264 JLINK_IsHalted()
T143C 000:892.322 - 1.067ms returns FALSE
T143C 000:892.338 JLINK_HasError()
T143C 000:896.287 JLINK_IsHalted()
T143C 000:897.342 - 1.061ms returns FALSE
T143C 000:897.353 JLINK_HasError()
T143C 000:899.285 JLINK_IsHalted()
T143C 000:900.338 - 1.061ms returns FALSE
T143C 000:900.354 JLINK_HasError()
T143C 000:902.283 JLINK_IsHalted()
T143C 000:912.605   CPU_ReadMem(2 bytes @ 0x20000000)
T143C 000:913.690 - 11.413ms returns TRUE
T143C 000:913.708 JLINK_ReadReg(R15 (PC))
T143C 000:913.719 - 0.014ms returns 0x20000000
T143C 000:913.729 JLINK_ClrBPEx(BPHandle = 0x0000000A)
T143C 000:913.736 - 0.011ms returns 0x00
T143C 000:913.746 JLINK_ReadReg(R0)
T143C 000:913.753 - 0.010ms returns 0x00000000
T143C 000:914.163 JLINK_WriteMem(0x20000180, 0x280 Bytes, ...)
T143C 000:914.172   Data:  83 57 A4 FB 07 68 02 95 8D 0A 05 FB 07 85 4F EA ...
T143C 000:914.191   CPU_WriteMem(640 bytes @ 0x20000180)
T143C 000:941.069 - 26.915ms returns 0x280
T143C 000:941.090 JLINK_WriteMem(0x20000400, 0x180 Bytes, ...)
T143C 000:941.097   Data:  00 04 05 DB 1C 46 4F F0 00 43 52 42 63 EB 04 03 ...
T143C 000:941.118   CPU_WriteMem(384 bytes @ 0x20000400)
T143C 000:957.858 - 16.781ms returns 0x180
T143C 000:957.884 JLINK_HasError()
T143C 000:957.928 JLINK_WriteReg(R0, 0x08000400)
T143C 000:957.940 - 0.015ms returns 0
T143C 000:957.946 JLINK_WriteReg(R1, 0x00000400)
T143C 000:957.952 - 0.007ms returns 0
T143C 000:957.957 JLINK_WriteReg(R2, 0x20000180)
T143C 000:957.962 - 0.007ms returns 0
T143C 000:957.968 JLINK_WriteReg(R3, 0x00000000)
T143C 000:957.973 - 0.007ms returns 0
T143C 000:957.978 JLINK_WriteReg(R4, 0x00000000)
T143C 000:957.983 - 0.007ms returns 0
T143C 000:957.989 JLINK_WriteReg(R5, 0x00000000)
T143C 000:957.994 - 0.007ms returns 0
T143C 000:957.999 JLINK_WriteReg(R6, 0x00000000)
T143C 000:958.004 - 0.007ms returns 0
T143C 000:958.009 JLINK_WriteReg(R7, 0x00000000)
T143C 000:958.014 - 0.007ms returns 0
T143C 000:958.020 JLINK_WriteReg(R8, 0x00000000)
T143C 000:958.025 - 0.007ms returns 0
T143C 000:958.030 JLINK_WriteReg(R9, 0x2000017C)
T143C 000:958.035 - 0.007ms returns 0
T143C 000:958.041 JLINK_WriteReg(R10, 0x00000000)
T143C 000:958.046 - 0.007ms returns 0
T143C 000:958.051 JLINK_WriteReg(R11, 0x00000000)
T143C 000:958.056 - 0.007ms returns 0
T143C 000:958.062 JLINK_WriteReg(R12, 0x00000000)
T143C 000:958.066 - 0.007ms returns 0
T143C 000:958.072 JLINK_WriteReg(R13 (SP), 0x20001000)
T143C 000:958.078 - 0.008ms returns 0
T143C 000:958.083 JLINK_WriteReg(R14, 0x20000001)
T143C 000:958.088 - 0.007ms returns 0
T143C 000:958.094 JLINK_WriteReg(R15 (PC), 0x20000108)
T143C 000:958.099 - 0.007ms returns 0
T143C 000:958.104 JLINK_WriteReg(XPSR, 0x01000000)
T143C 000:958.109 - 0.007ms returns 0
T143C 000:958.115 JLINK_WriteReg(MSP, 0x20001000)
T143C 000:958.120 - 0.007ms returns 0
T143C 000:958.125 JLINK_WriteReg(PSP, 0x20001000)
T143C 000:958.130 - 0.007ms returns 0
T143C 000:958.136 JLINK_WriteReg(CFBP, 0x00000000)
T143C 000:958.141 - 0.007ms returns 0
T143C 000:958.147 JLINK_SetBPEx(Addr = 0x20000000, Type = 0xFFFFFFF2)
T143C 000:958.153 - 0.008ms returns 0x0000000B
T143C 000:958.159 JLINK_Go()
T143C 000:958.172   CPU_ReadMem(4 bytes @ 0xE0001000)
T143C 000:968.452 - 10.303ms
T143C 000:968.470 JLINK_IsHalted()
T143C 000:969.539 - 1.076ms returns FALSE
T143C 000:969.552 JLINK_HasError()
T143C 000:971.318 JLINK_IsHalted()
T143C 000:972.402 - 1.094ms returns FALSE
T143C 000:972.420 JLINK_HasError()
T143C 000:974.315 JLINK_IsHalted()
T143C 000:975.470 - 1.163ms returns FALSE
T143C 000:975.485 JLINK_HasError()
T143C 000:977.288 JLINK_IsHalted()
T143C 000:978.391 - 1.112ms returns FALSE
T143C 000:978.408 JLINK_HasError()
T143C 000:980.314 JLINK_IsHalted()
T143C 000:990.569   CPU_ReadMem(2 bytes @ 0x20000000)
T143C 000:991.670 - 11.362ms returns TRUE
T143C 000:991.689 JLINK_ReadReg(R15 (PC))
T143C 000:991.700 - 0.015ms returns 0x20000000
T143C 000:991.710 JLINK_ClrBPEx(BPHandle = 0x0000000B)
T143C 000:991.718 - 0.010ms returns 0x00
T143C 000:991.727 JLINK_ReadReg(R0)
T143C 000:991.734 - 0.010ms returns 0x00000000
T143C 000:992.163 JLINK_WriteMem(0x20000180, 0x280 Bytes, ...)
T143C 000:992.174   Data:  E9 E7 01 05 10 19 69 41 DD E9 08 45 00 19 69 41 ...
T143C 000:992.191   CPU_WriteMem(640 bytes @ 0x20000180)
T143C 001:019.119 - 26.968ms returns 0x280
T143C 001:019.147 JLINK_WriteMem(0x20000400, 0x180 Bytes, ...)
T143C 001:019.155   Data:  01 70 41 70 81 70 C1 70 01 71 41 71 01 21 81 71 ...
T143C 001:019.179   CPU_WriteMem(384 bytes @ 0x20000400)
T143C 001:035.939 - 16.803ms returns 0x180
T143C 001:035.967 JLINK_HasError()
T143C 001:035.978 JLINK_WriteReg(R0, 0x08000800)
T143C 001:035.991 - 0.015ms returns 0
T143C 001:035.997 JLINK_WriteReg(R1, 0x00000400)
T143C 001:036.003 - 0.008ms returns 0
T143C 001:036.011 JLINK_WriteReg(R2, 0x20000180)
T143C 001:036.016 - 0.011ms returns 0
T143C 001:036.027 JLINK_WriteReg(R3, 0x00000000)
T143C 001:036.032 - 0.007ms returns 0
T143C 001:036.037 JLINK_WriteReg(R4, 0x00000000)
T143C 001:036.042 - 0.007ms returns 0
T143C 001:036.048 JLINK_WriteReg(R5, 0x00000000)
T143C 001:036.053 - 0.007ms returns 0
T143C 001:036.060 JLINK_WriteReg(R6, 0x00000000)
T143C 001:036.065 - 0.007ms returns 0
T143C 001:036.072 JLINK_WriteReg(R7, 0x00000000)
T143C 001:036.078 - 0.007ms returns 0
T143C 001:036.085 JLINK_WriteReg(R8, 0x00000000)
T143C 001:036.090 - 0.007ms returns 0
T143C 001:036.097 JLINK_WriteReg(R9, 0x2000017C)
T143C 001:036.103 - 0.007ms returns 0
T143C 001:036.108 JLINK_WriteReg(R10, 0x00000000)
T143C 001:036.113 - 0.007ms returns 0
T143C 001:036.120 JLINK_WriteReg(R11, 0x00000000)
T143C 001:036.125 - 0.007ms returns 0
T143C 001:036.131 JLINK_WriteReg(R12, 0x00000000)
T143C 001:036.136 - 0.007ms returns 0
T143C 001:036.141 JLINK_WriteReg(R13 (SP), 0x20001000)
T143C 001:036.147 - 0.008ms returns 0
T143C 001:036.152 JLINK_WriteReg(R14, 0x20000001)
T143C 001:036.157 - 0.007ms returns 0
T143C 001:036.164 JLINK_WriteReg(R15 (PC), 0x20000108)
T143C 001:036.170 - 0.007ms returns 0
T143C 001:036.207 JLINK_WriteReg(XPSR, 0x01000000)
T143C 001:036.217 - 0.012ms returns 0
T143C 001:036.223 JLINK_WriteReg(MSP, 0x20001000)
T143C 001:036.228 - 0.007ms returns 0
T143C 001:036.233 JLINK_WriteReg(PSP, 0x20001000)
T143C 001:036.238 - 0.007ms returns 0
T143C 001:036.244 JLINK_WriteReg(CFBP, 0x00000000)
T143C 001:036.249 - 0.007ms returns 0
T143C 001:036.255 JLINK_SetBPEx(Addr = 0x20000000, Type = 0xFFFFFFF2)
T143C 001:036.261 - 0.009ms returns 0x0000000C
T143C 001:036.267 JLINK_Go()
T143C 001:036.294   CPU_ReadMem(4 bytes @ 0xE0001000)
T143C 001:046.388 - 10.139ms
T143C 001:046.419 JLINK_IsHalted()
T143C 001:047.476 - 1.071ms returns FALSE
T143C 001:047.499 JLINK_HasError()
T143C 001:050.306 JLINK_IsHalted()
